   ** sch_path: /home/ilker/projects/openiceda/project/xschem/untitled-1.sch
   Transient Analysis  Sat Mar 12 18:26:14  2022
--------------------------------------------------------------------------------
Index   time            in              m.xm2.msky130_f m.xm2.msky130_f 
--------------------------------------------------------------------------------
0	0.000000e+00	0.000000e+00	3.192294e-01	3.192294e-01	
1	1.000000e-07	6.283185e-07	3.192294e-01	3.192294e-01	
2	2.000000e-07	1.256637e-06	3.192294e-01	3.192294e-01	
3	4.000000e-07	2.513274e-06	3.192294e-01	3.192294e-01	
4	8.000000e-07	5.026548e-06	3.192294e-01	3.192294e-01	
5	1.600000e-06	1.005309e-05	3.192294e-01	3.192294e-01	
6	3.200000e-06	2.010618e-05	3.192294e-01	3.192294e-01	
7	6.400000e-06	4.021228e-05	3.192294e-01	3.192294e-01	
8	1.280000e-05	8.042390e-05	3.192294e-01	3.192294e-01	
9	2.280000e-05	1.432517e-04	3.192294e-01	3.192294e-01	
10	3.280000e-05	2.060739e-04	3.192294e-01	3.192294e-01	
11	4.280000e-05	2.688879e-04	3.192294e-01	3.192294e-01	
12	5.280000e-05	3.316913e-04	3.192295e-01	3.192294e-01	
13	6.280000e-05	3.944817e-04	3.192295e-01	3.192294e-01	
14	7.280000e-05	4.572564e-04	3.192295e-01	3.192294e-01	
15	8.280000e-05	5.200131e-04	3.192295e-01	3.192294e-01	
16	9.280000e-05	5.827493e-04	3.192295e-01	3.192295e-01	
17	1.028000e-04	6.454624e-04	3.192295e-01	3.192295e-01	
18	1.128000e-04	7.081501e-04	3.192295e-01	3.192295e-01	
19	1.228000e-04	7.708098e-04	3.192295e-01	3.192295e-01	
20	1.328000e-04	8.334391e-04	3.192296e-01	3.192295e-01	
21	1.428000e-04	8.960355e-04	3.192296e-01	3.192295e-01	
22	1.528000e-04	9.585965e-04	3.192296e-01	3.192296e-01	
23	1.628000e-04	1.021120e-03	3.192296e-01	3.192296e-01	
24	1.728000e-04	1.083603e-03	3.192297e-01	3.192296e-01	
25	1.828000e-04	1.146043e-03	3.192297e-01	3.192296e-01	
26	1.928000e-04	1.208437e-03	3.192297e-01	3.192297e-01	
27	2.028000e-04	1.270785e-03	3.192297e-01	3.192297e-01	
28	2.128000e-04	1.333082e-03	3.192298e-01	3.192297e-01	
29	2.228000e-04	1.395326e-03	3.192298e-01	3.192298e-01	
30	2.328000e-04	1.457515e-03	3.192298e-01	3.192298e-01	
31	2.428000e-04	1.519647e-03	3.192299e-01	3.192298e-01	
32	2.528000e-04	1.581719e-03	3.192299e-01	3.192298e-01	
33	2.628000e-04	1.643728e-03	3.192299e-01	3.192299e-01	
34	2.728000e-04	1.705672e-03	3.192300e-01	3.192299e-01	
35	2.828000e-04	1.767549e-03	3.192300e-01	3.192300e-01	
36	2.928000e-04	1.829356e-03	3.192300e-01	3.192300e-01	
37	3.028000e-04	1.891092e-03	3.192301e-01	3.192300e-01	
38	3.128000e-04	1.952752e-03	3.192301e-01	3.192301e-01	
39	3.228000e-04	2.014335e-03	3.192302e-01	3.192301e-01	
40	3.328000e-04	2.075839e-03	3.192302e-01	3.192302e-01	
41	3.428000e-04	2.137261e-03	3.192302e-01	3.192302e-01	
42	3.528000e-04	2.198598e-03	3.192303e-01	3.192302e-01	
43	3.628000e-04	2.259849e-03	3.192303e-01	3.192303e-01	
44	3.728000e-04	2.321010e-03	3.192304e-01	3.192303e-01	
45	3.828000e-04	2.382080e-03	3.192304e-01	3.192304e-01	
46	3.928000e-04	2.443056e-03	3.192305e-01	3.192304e-01	
47	4.028000e-04	2.503935e-03	3.192305e-01	3.192305e-01	
48	4.128000e-04	2.564716e-03	3.192306e-01	3.192305e-01	
49	4.228000e-04	2.625395e-03	3.192306e-01	3.192306e-01	
50	4.328000e-04	2.685970e-03	3.192307e-01	3.192306e-01	
51	4.428000e-04	2.746440e-03	3.192307e-01	3.192307e-01	
52	4.528000e-04	2.806801e-03	3.192308e-01	3.192307e-01	
53	4.628000e-04	2.867051e-03	3.192308e-01	3.192308e-01	
54	4.728000e-04	2.927189e-03	3.192309e-01	3.192308e-01	

Index   time            in              m.xm2.msky130_f m.xm2.msky130_f 
--------------------------------------------------------------------------------
55	4.828000e-04	2.987210e-03	3.192309e-01	3.192309e-01	
56	4.928000e-04	3.047114e-03	3.192310e-01	3.192309e-01	
57	5.028000e-04	3.106897e-03	3.192310e-01	3.192310e-01	
58	5.128000e-04	3.166558e-03	3.192311e-01	3.192310e-01	
59	5.228000e-04	3.226093e-03	3.192311e-01	3.192311e-01	
60	5.328000e-04	3.285502e-03	3.192312e-01	3.192311e-01	
61	5.428000e-04	3.344780e-03	3.192312e-01	3.192312e-01	
62	5.528000e-04	3.403927e-03	3.192313e-01	3.192313e-01	
63	5.628000e-04	3.462939e-03	3.192314e-01	3.192313e-01	
64	5.728000e-04	3.521814e-03	3.192314e-01	3.192314e-01	
65	5.828000e-04	3.580551e-03	3.192315e-01	3.192314e-01	
66	5.928000e-04	3.639146e-03	3.192315e-01	3.192315e-01	
67	6.028000e-04	3.697597e-03	3.192316e-01	3.192316e-01	
68	6.128000e-04	3.755903e-03	3.192317e-01	3.192316e-01	
69	6.228000e-04	3.814060e-03	3.192317e-01	3.192317e-01	
70	6.328000e-04	3.872066e-03	3.192318e-01	3.192317e-01	
71	6.428000e-04	3.929920e-03	3.192318e-01	3.192318e-01	
72	6.528000e-04	3.987619e-03	3.192319e-01	3.192319e-01	
73	6.628000e-04	4.045160e-03	3.192320e-01	3.192319e-01	
74	6.728000e-04	4.102541e-03	3.192320e-01	3.192320e-01	
75	6.828000e-04	4.159761e-03	3.192321e-01	3.192321e-01	
76	6.928000e-04	4.216816e-03	3.192322e-01	3.192321e-01	
77	7.028000e-04	4.273705e-03	3.192322e-01	3.192322e-01	
78	7.128000e-04	4.330425e-03	3.192323e-01	3.192322e-01	
79	7.228000e-04	4.386974e-03	3.192324e-01	3.192323e-01	
80	7.328000e-04	4.443350e-03	3.192324e-01	3.192324e-01	
81	7.428000e-04	4.499550e-03	3.192325e-01	3.192324e-01	
82	7.528000e-04	4.555573e-03	3.192326e-01	3.192325e-01	
83	7.628000e-04	4.611416e-03	3.192326e-01	3.192326e-01	
84	7.728000e-04	4.667077e-03	3.192327e-01	3.192326e-01	
85	7.828000e-04	4.722554e-03	3.192328e-01	3.192327e-01	
86	7.928000e-04	4.777844e-03	3.192328e-01	3.192328e-01	
87	8.028000e-04	4.832946e-03	3.192329e-01	3.192329e-01	
88	8.128000e-04	4.887857e-03	3.192330e-01	3.192329e-01	
89	8.228000e-04	4.942575e-03	3.192330e-01	3.192330e-01	
90	8.328000e-04	4.997098e-03	3.192331e-01	3.192331e-01	
91	8.428000e-04	5.051423e-03	3.192332e-01	3.192331e-01	
92	8.528000e-04	5.105549e-03	3.192332e-01	3.192332e-01	
93	8.628000e-04	5.159474e-03	3.192333e-01	3.192333e-01	
94	8.728000e-04	5.213195e-03	3.192334e-01	3.192333e-01	
95	8.828000e-04	5.266710e-03	3.192334e-01	3.192334e-01	
96	8.928000e-04	5.320017e-03	3.192335e-01	3.192335e-01	
97	9.028000e-04	5.373114e-03	3.192336e-01	3.192335e-01	
98	9.128000e-04	5.425999e-03	3.192337e-01	3.192336e-01	
99	9.228000e-04	5.478670e-03	3.192337e-01	3.192337e-01	
100	9.328000e-04	5.531124e-03	3.192338e-01	3.192338e-01	
101	9.428000e-04	5.583360e-03	3.192339e-01	3.192338e-01	
102	9.528000e-04	5.635376e-03	3.192339e-01	3.192339e-01	
103	9.628000e-04	5.687169e-03	3.192340e-01	3.192340e-01	
104	9.728000e-04	5.738738e-03	3.192341e-01	3.192340e-01	
105	9.828000e-04	5.790080e-03	3.192342e-01	3.192341e-01	
106	9.928000e-04	5.841193e-03	3.192342e-01	3.192342e-01	
107	1.002800e-03	5.892076e-03	3.192343e-01	3.192343e-01	
108	1.012800e-03	5.942727e-03	3.192344e-01	3.192343e-01	
109	1.022800e-03	5.993142e-03	3.192345e-01	3.192344e-01	
110	1.032800e-03	6.043322e-03	3.192345e-01	3.192345e-01	
111	1.042800e-03	6.093262e-03	3.192346e-01	3.192346e-01	
112	1.052800e-03	6.142962e-03	3.192347e-01	3.192346e-01	

Index   time            in              m.xm2.msky130_f m.xm2.msky130_f 
--------------------------------------------------------------------------------
113	1.062800e-03	6.192420e-03	3.192347e-01	3.192347e-01	
114	1.072800e-03	6.241633e-03	3.192348e-01	3.192348e-01	
115	1.082800e-03	6.290599e-03	3.192349e-01	3.192348e-01	
116	1.092800e-03	6.339318e-03	3.192350e-01	3.192349e-01	
117	1.102800e-03	6.387786e-03	3.192350e-01	3.192350e-01	
118	1.112800e-03	6.436001e-03	3.192351e-01	3.192351e-01	
119	1.122800e-03	6.483963e-03	3.192352e-01	3.192351e-01	
120	1.132800e-03	6.531669e-03	3.192353e-01	3.192352e-01	
121	1.142800e-03	6.579117e-03	3.192353e-01	3.192353e-01	
122	1.152800e-03	6.626305e-03	3.192354e-01	3.192354e-01	
123	1.162800e-03	6.673232e-03	3.192355e-01	3.192354e-01	
124	1.172800e-03	6.719895e-03	3.192355e-01	3.192355e-01	
125	1.182800e-03	6.766293e-03	3.192356e-01	3.192356e-01	
126	1.192800e-03	6.812423e-03	3.192357e-01	3.192356e-01	
127	1.202800e-03	6.858285e-03	3.192358e-01	3.192357e-01	
128	1.212800e-03	6.903876e-03	3.192358e-01	3.192358e-01	
129	1.222800e-03	6.949195e-03	3.192359e-01	3.192359e-01	
130	1.232800e-03	6.994239e-03	3.192360e-01	3.192359e-01	
131	1.242800e-03	7.039007e-03	3.192361e-01	3.192360e-01	
132	1.252800e-03	7.083497e-03	3.192361e-01	3.192361e-01	
133	1.262800e-03	7.127707e-03	3.192362e-01	3.192362e-01	
134	1.272800e-03	7.171637e-03	3.192363e-01	3.192362e-01	
135	1.282800e-03	7.215282e-03	3.192363e-01	3.192363e-01	
136	1.292800e-03	7.258644e-03	3.192364e-01	3.192364e-01	
137	1.302800e-03	7.301718e-03	3.192365e-01	3.192364e-01	
138	1.312800e-03	7.344504e-03	3.192366e-01	3.192365e-01	
139	1.322800e-03	7.387001e-03	3.192366e-01	3.192366e-01	
140	1.332800e-03	7.429206e-03	3.192367e-01	3.192367e-01	
141	1.342800e-03	7.471117e-03	3.192368e-01	3.192367e-01	
142	1.352800e-03	7.512733e-03	3.192369e-01	3.192368e-01	
143	1.362800e-03	7.554053e-03	3.192369e-01	3.192369e-01	
144	1.372800e-03	7.595075e-03	3.192370e-01	3.192370e-01	
145	1.382800e-03	7.635797e-03	3.192371e-01	3.192370e-01	
146	1.392800e-03	7.676217e-03	3.192371e-01	3.192371e-01	
147	1.402800e-03	7.716335e-03	3.192372e-01	3.192372e-01	
148	1.412800e-03	7.756147e-03	3.192373e-01	3.192372e-01	
149	1.422800e-03	7.795654e-03	3.192374e-01	3.192373e-01	
150	1.432800e-03	7.834853e-03	3.192374e-01	3.192374e-01	
151	1.442800e-03	7.873742e-03	3.192375e-01	3.192374e-01	
152	1.452800e-03	7.912321e-03	3.192376e-01	3.192375e-01	
153	1.462800e-03	7.950587e-03	3.192376e-01	3.192376e-01	
154	1.472800e-03	7.988539e-03	3.192377e-01	3.192377e-01	
155	1.482800e-03	8.026176e-03	3.192378e-01	3.192377e-01	
156	1.492800e-03	8.063496e-03	3.192378e-01	3.192378e-01	
157	1.502800e-03	8.100498e-03	3.192379e-01	3.192379e-01	
158	1.512800e-03	8.137180e-03	3.192380e-01	3.192379e-01	
159	1.522800e-03	8.173541e-03	3.192380e-01	3.192380e-01	
160	1.532800e-03	8.209579e-03	3.192381e-01	3.192381e-01	
161	1.542800e-03	8.245293e-03	3.192382e-01	3.192381e-01	
162	1.552800e-03	8.280682e-03	3.192383e-01	3.192382e-01	
163	1.562800e-03	8.315743e-03	3.192383e-01	3.192383e-01	
164	1.572800e-03	8.350476e-03	3.192384e-01	3.192383e-01	
165	1.582800e-03	8.384880e-03	3.192385e-01	3.192384e-01	
166	1.592800e-03	8.418953e-03	3.192385e-01	3.192385e-01	
167	1.602800e-03	8.452693e-03	3.192386e-01	3.192385e-01	
168	1.612800e-03	8.486099e-03	3.192387e-01	3.192386e-01	
169	1.622800e-03	8.519171e-03	3.192387e-01	3.192387e-01	
170	1.632800e-03	8.551906e-03	3.192388e-01	3.192387e-01	

Index   time            in              m.xm2.msky130_f m.xm2.msky130_f 
--------------------------------------------------------------------------------
171	1.642800e-03	8.584304e-03	3.192389e-01	3.192388e-01	
172	1.652800e-03	8.616362e-03	3.192389e-01	3.192389e-01	
173	1.662800e-03	8.648081e-03	3.192390e-01	3.192389e-01	
174	1.672800e-03	8.679458e-03	3.192391e-01	3.192390e-01	
175	1.682800e-03	8.710493e-03	3.192391e-01	3.192391e-01	
176	1.692800e-03	8.741183e-03	3.192392e-01	3.192391e-01	
177	1.702800e-03	8.771529e-03	3.192392e-01	3.192392e-01	
178	1.712800e-03	8.801528e-03	3.192393e-01	3.192393e-01	
179	1.722800e-03	8.831180e-03	3.192394e-01	3.192393e-01	
180	1.732800e-03	8.860483e-03	3.192394e-01	3.192394e-01	
181	1.742800e-03	8.889436e-03	3.192395e-01	3.192395e-01	
182	1.752800e-03	8.918038e-03	3.192396e-01	3.192395e-01	
183	1.762800e-03	8.946289e-03	3.192396e-01	3.192396e-01	
184	1.772800e-03	8.974186e-03	3.192397e-01	3.192396e-01	
185	1.782800e-03	9.001729e-03	3.192397e-01	3.192397e-01	
186	1.792800e-03	9.028916e-03	3.192398e-01	3.192398e-01	
187	1.802800e-03	9.055747e-03	3.192399e-01	3.192398e-01	
188	1.812800e-03	9.082221e-03	3.192399e-01	3.192399e-01	
189	1.822800e-03	9.108336e-03	3.192400e-01	3.192399e-01	
190	1.832800e-03	9.134091e-03	3.192401e-01	3.192400e-01	
191	1.842800e-03	9.159486e-03	3.192401e-01	3.192401e-01	
192	1.852800e-03	9.184519e-03	3.192402e-01	3.192401e-01	
193	1.862800e-03	9.209190e-03	3.192402e-01	3.192402e-01	
194	1.872800e-03	9.233497e-03	3.192403e-01	3.192402e-01	
195	1.882800e-03	9.257439e-03	3.192403e-01	3.192403e-01	
196	1.892800e-03	9.281016e-03	3.192404e-01	3.192404e-01	
197	1.902800e-03	9.304227e-03	3.192405e-01	3.192404e-01	
198	1.912800e-03	9.327070e-03	3.192405e-01	3.192405e-01	
199	1.922800e-03	9.349545e-03	3.192406e-01	3.192405e-01	
200	1.932800e-03	9.371651e-03	3.192406e-01	3.192406e-01	
201	1.942800e-03	9.393387e-03	3.192407e-01	3.192406e-01	
202	1.952800e-03	9.414753e-03	3.192407e-01	3.192407e-01	
203	1.962800e-03	9.435746e-03	3.192408e-01	3.192408e-01	
204	1.972800e-03	9.456367e-03	3.192409e-01	3.192408e-01	
205	1.982800e-03	9.476615e-03	3.192409e-01	3.192409e-01	
206	1.992800e-03	9.496488e-03	3.192410e-01	3.192409e-01	
207	2.002800e-03	9.515987e-03	3.192410e-01	3.192410e-01	
208	2.012800e-03	9.535110e-03	3.192411e-01	3.192410e-01	
209	2.022800e-03	9.553856e-03	3.192411e-01	3.192411e-01	
210	2.032800e-03	9.572226e-03	3.192412e-01	3.192411e-01	
211	2.042800e-03	9.590217e-03	3.192412e-01	3.192412e-01	
212	2.052800e-03	9.607830e-03	3.192413e-01	3.192412e-01	
213	2.062800e-03	9.625064e-03	3.192413e-01	3.192413e-01	
214	2.072800e-03	9.641917e-03	3.192414e-01	3.192413e-01	
215	2.082800e-03	9.658390e-03	3.192414e-01	3.192414e-01	
216	2.092800e-03	9.674482e-03	3.192415e-01	3.192414e-01	
217	2.102800e-03	9.690192e-03	3.192415e-01	3.192415e-01	
218	2.112800e-03	9.705519e-03	3.192416e-01	3.192415e-01	
219	2.122800e-03	9.720463e-03	3.192416e-01	3.192416e-01	
220	2.132800e-03	9.735023e-03	3.192417e-01	3.192416e-01	
221	2.142800e-03	9.749199e-03	3.192417e-01	3.192417e-01	
222	2.152800e-03	9.762990e-03	3.192418e-01	3.192417e-01	
223	2.162800e-03	9.776396e-03	3.192418e-01	3.192418e-01	
224	2.172800e-03	9.789416e-03	3.192419e-01	3.192418e-01	
225	2.182800e-03	9.802049e-03	3.192419e-01	3.192419e-01	
226	2.192800e-03	9.814295e-03	3.192419e-01	3.192419e-01	
227	2.202800e-03	9.826154e-03	3.192420e-01	3.192420e-01	
228	2.212800e-03	9.837625e-03	3.192420e-01	3.192420e-01	

Index   time            in              m.xm2.msky130_f m.xm2.msky130_f 
--------------------------------------------------------------------------------
229	2.222800e-03	9.848707e-03	3.192421e-01	3.192420e-01	
230	2.232800e-03	9.859401e-03	3.192421e-01	3.192421e-01	
231	2.242800e-03	9.869705e-03	3.192422e-01	3.192421e-01	
232	2.252800e-03	9.879620e-03	3.192422e-01	3.192422e-01	
233	2.262800e-03	9.889145e-03	3.192423e-01	3.192422e-01	
234	2.272800e-03	9.898279e-03	3.192423e-01	3.192423e-01	
235	2.282800e-03	9.907023e-03	3.192423e-01	3.192423e-01	
236	2.292800e-03	9.915376e-03	3.192424e-01	3.192423e-01	
237	2.302800e-03	9.923337e-03	3.192424e-01	3.192424e-01	
238	2.312800e-03	9.930906e-03	3.192425e-01	3.192424e-01	
239	2.322800e-03	9.938083e-03	3.192425e-01	3.192425e-01	
240	2.332800e-03	9.944868e-03	3.192425e-01	3.192425e-01	
241	2.342800e-03	9.951260e-03	3.192426e-01	3.192425e-01	
242	2.352800e-03	9.957260e-03	3.192426e-01	3.192426e-01	
243	2.362800e-03	9.962866e-03	3.192426e-01	3.192426e-01	
244	2.372800e-03	9.968079e-03	3.192427e-01	3.192426e-01	
245	2.382800e-03	9.972899e-03	3.192427e-01	3.192427e-01	
246	2.392800e-03	9.977325e-03	3.192428e-01	3.192427e-01	
247	2.402800e-03	9.981357e-03	3.192428e-01	3.192427e-01	
248	2.412800e-03	9.984994e-03	3.192428e-01	3.192428e-01	
249	2.422800e-03	9.988238e-03	3.192429e-01	3.192428e-01	
250	2.432800e-03	9.991087e-03	3.192429e-01	3.192428e-01	
251	2.442800e-03	9.993542e-03	3.192429e-01	3.192429e-01	
252	2.452800e-03	9.995603e-03	3.192430e-01	3.192429e-01	
253	2.462800e-03	9.997269e-03	3.192430e-01	3.192429e-01	
254	2.472800e-03	9.998540e-03	3.192430e-01	3.192430e-01	
255	2.482800e-03	9.999416e-03	3.192430e-01	3.192430e-01	
256	2.492800e-03	9.999898e-03	3.192431e-01	3.192430e-01	
257	2.502800e-03	9.999985e-03	3.192431e-01	3.192431e-01	
258	2.512800e-03	9.999677e-03	3.192431e-01	3.192431e-01	
259	2.522800e-03	9.998974e-03	3.192432e-01	3.192431e-01	
260	2.532800e-03	9.997876e-03	3.192432e-01	3.192432e-01	
261	2.542800e-03	9.996384e-03	3.192432e-01	3.192432e-01	
262	2.552800e-03	9.994498e-03	3.192432e-01	3.192432e-01	
263	2.562800e-03	9.992216e-03	3.192433e-01	3.192432e-01	
264	2.572800e-03	9.989540e-03	3.192433e-01	3.192433e-01	
265	2.582800e-03	9.986470e-03	3.192433e-01	3.192433e-01	
266	2.592800e-03	9.983006e-03	3.192433e-01	3.192433e-01	
267	2.602800e-03	9.979147e-03	3.192434e-01	3.192433e-01	
268	2.612800e-03	9.974895e-03	3.192434e-01	3.192434e-01	
269	2.622800e-03	9.970248e-03	3.192434e-01	3.192434e-01	
270	2.632800e-03	9.965208e-03	3.192434e-01	3.192434e-01	
271	2.642800e-03	9.959775e-03	3.192435e-01	3.192434e-01	
272	2.652800e-03	9.953949e-03	3.192435e-01	3.192434e-01	
273	2.662800e-03	9.947729e-03	3.192435e-01	3.192435e-01	
274	2.672800e-03	9.941117e-03	3.192435e-01	3.192435e-01	
275	2.682800e-03	9.934112e-03	3.192435e-01	3.192435e-01	
276	2.692800e-03	9.926715e-03	3.192436e-01	3.192435e-01	
277	2.702800e-03	9.918927e-03	3.192436e-01	3.192435e-01	
278	2.712800e-03	9.910746e-03	3.192436e-01	3.192436e-01	
279	2.722800e-03	9.902175e-03	3.192436e-01	3.192436e-01	
280	2.732800e-03	9.893212e-03	3.192436e-01	3.192436e-01	
281	2.742800e-03	9.883859e-03	3.192437e-01	3.192436e-01	
282	2.752800e-03	9.874116e-03	3.192437e-01	3.192436e-01	
283	2.762800e-03	9.863983e-03	3.192437e-01	3.192436e-01	
284	2.772800e-03	9.853460e-03	3.192437e-01	3.192437e-01	
285	2.782800e-03	9.842549e-03	3.192437e-01	3.192437e-01	
286	2.792800e-03	9.831249e-03	3.192437e-01	3.192437e-01	

Index   time            in              m.xm2.msky130_f m.xm2.msky130_f 
--------------------------------------------------------------------------------
287	2.802800e-03	9.819561e-03	3.192437e-01	3.192437e-01	
288	2.812800e-03	9.807485e-03	3.192438e-01	3.192437e-01	
289	2.822800e-03	9.795022e-03	3.192438e-01	3.192437e-01	
290	2.832800e-03	9.782172e-03	3.192438e-01	3.192437e-01	
291	2.842800e-03	9.768936e-03	3.192438e-01	3.192438e-01	
292	2.852800e-03	9.755315e-03	3.192438e-01	3.192438e-01	
293	2.862800e-03	9.741308e-03	3.192438e-01	3.192438e-01	
294	2.872800e-03	9.726917e-03	3.192438e-01	3.192438e-01	
295	2.882800e-03	9.712142e-03	3.192438e-01	3.192438e-01	
296	2.892800e-03	9.696983e-03	3.192438e-01	3.192438e-01	
297	2.902800e-03	9.681441e-03	3.192438e-01	3.192438e-01	
298	2.912800e-03	9.665518e-03	3.192439e-01	3.192438e-01	
299	2.922800e-03	9.649212e-03	3.192439e-01	3.192438e-01	
300	2.932800e-03	9.632526e-03	3.192439e-01	3.192438e-01	
301	2.942800e-03	9.615460e-03	3.192439e-01	3.192438e-01	
302	2.952800e-03	9.598014e-03	3.192439e-01	3.192438e-01	
303	2.962800e-03	9.580189e-03	3.192439e-01	3.192438e-01	
304	2.972800e-03	9.561986e-03	3.192439e-01	3.192438e-01	
305	2.982800e-03	9.543405e-03	3.192439e-01	3.192438e-01	
306	2.992800e-03	9.524447e-03	3.192439e-01	3.192438e-01	
307	3.002800e-03	9.505114e-03	3.192439e-01	3.192439e-01	
308	3.012800e-03	9.485405e-03	3.192439e-01	3.192439e-01	
309	3.022800e-03	9.465322e-03	3.192439e-01	3.192439e-01	
310	3.032800e-03	9.444865e-03	3.192439e-01	3.192439e-01	
311	3.042800e-03	9.424036e-03	3.192439e-01	3.192439e-01	
312	3.052800e-03	9.402834e-03	3.192439e-01	3.192439e-01	
313	3.062800e-03	9.381261e-03	3.192439e-01	3.192439e-01	
314	3.072800e-03	9.359317e-03	3.192439e-01	3.192438e-01	
315	3.082800e-03	9.337005e-03	3.192439e-01	3.192438e-01	
316	3.092800e-03	9.314323e-03	3.192439e-01	3.192438e-01	
317	3.102800e-03	9.291274e-03	3.192439e-01	3.192438e-01	
318	3.112800e-03	9.267858e-03	3.192439e-01	3.192438e-01	
319	3.122800e-03	9.244076e-03	3.192439e-01	3.192438e-01	
320	3.132800e-03	9.219930e-03	3.192439e-01	3.192438e-01	
321	3.142800e-03	9.195419e-03	3.192439e-01	3.192438e-01	
322	3.152800e-03	9.170545e-03	3.192439e-01	3.192438e-01	
323	3.162800e-03	9.145309e-03	3.192438e-01	3.192438e-01	
324	3.172800e-03	9.119712e-03	3.192438e-01	3.192438e-01	
325	3.182800e-03	9.093756e-03	3.192438e-01	3.192438e-01	
326	3.192800e-03	9.067440e-03	3.192438e-01	3.192438e-01	
327	3.202800e-03	9.040766e-03	3.192438e-01	3.192438e-01	
328	3.212800e-03	9.013735e-03	3.192438e-01	3.192438e-01	
329	3.222800e-03	8.986348e-03	3.192438e-01	3.192437e-01	
330	3.232800e-03	8.958607e-03	3.192438e-01	3.192437e-01	
331	3.242800e-03	8.930512e-03	3.192438e-01	3.192437e-01	
